
T1F78 000:730 SEGGER J-Link V4.14a Log File (0005ms, 0720ms total)
T1F78 000:730 DLL Compiled: Apr 21 2010 20:54:28 (0006ms, 0720ms total)
T1F78 000:730 Logging started @ 2010-05-07 21:07 (0007ms, 0720ms total)
T1F78 000:737 JLINK_SetWarnOutHandler(...) (0001ms, 0727ms total)
T1F78 000:738 JLINK_OpenEx(...)
Firmware: J-Link ARM-OB STM32 compiled Mar 01 2010 17:00:09
Hardware: V7.00
S/N: 20090928
Feature(s): RDI,FlashDL,FlashBP,JFlash,GDBFull  returns O.K. (0133ms, 0728ms total)
T1F78 000:872 JLINK_SetErrorOutHandler(...) (0001ms, 0861ms total)
T1F78 000:874 JLINK_TIF_Select(JLINKARM_TIF_SWD)  returns 0x00 (0003ms, 0862ms total)
T1F78 000:879 JLINK_SetSpeed(5000) (0002ms, 0865ms total)
T1F78 000:881 JLINK_GetHardwareVersion()  returns 0x11170 (0001ms, 0867ms total)
T1F78 000:882 JLINK_GetDLLVersion()  returns 41401 (0001ms, 0868ms total)
T1F78 000:884 JLINK_GetFirmwareString(...) (0001ms, 0869ms total)
T1F78 000:885 JLINK_GetDLLVersion()  returns 41401 (0001ms, 0870ms total)
T1F78 000:886 JLINK_GetCompileDateTime() (0004ms, 0871ms total)
T1F78 000:890 JLINK_GetFirmwareString(...) (0001ms, 0875ms total)
T1F78 000:892 JLINK_GetHardwareVersion()  returns 0x11170 (0003ms, 0876ms total)
T1F78 000:899 JLINK_JTAG_StoreRaw(..., 0x108 Bits)  returns 0x00 (0014ms, 0879ms total)
T1F78 000:913 JLINK_JTAG_GetU32(BitPos = 227) >0x108 TIF>  returns 0x2BA01477 (0003ms, 0893ms total)
T1F78 000:916 JLINK_ReadMem (0xE00FF000, 0x0018 Bytes, ...) >0x108 TIF>Found SWD-DP with ID 0x2BA01477 >0x33 TIF> >0x33 TIF> >0x35 TIF> >0x33 TIF> >0x35 TIF> >0x33 TIF> >0x33 TIF> >0x35 TIF> >0x66 TIF> >0x66 TIF> >0x35 TIF> >0x16D TIF> >0xD0 TIF> >0xD0 TIF>TPIU fitted. >0xD0 TIF>ETM fitted. >0xD0 TIF>  FPUnit: 6 code (BP) slots and 2 literal slots >0xD0 TIF> -- CPU is running -- CPU_ReadMem(24 bytes @ 0xE00FF000) -- Data:  03 F0 F0 FF 03 20 F0 FF 03 30 F0 FF 03 10 F0 FF ...  returns 0x00
 (0042ms, 0896ms total)
T1F78 000:959 JLINK_ReadMemU32(0xE000ED00, 0x0001 Items, ...) -- CPU is running -- CPU_ReadMem(4 bytes @ 0xE000ED00) -- Data:  30 C2 2F 41  returns 0x01 (0004ms, 0939ms total)
T1F78 000:964 JLINK_Reset() >0x108 TIF>Found SWD-DP with ID 0x2BA01477 >0x33 TIF> >0x33 TIF> >0x35 TIF> >0x33 TIF> >0x35 TIF> >0x33 TIF> >0x33 TIF> >0x35 TIF> >0x66 TIF> >0x66 TIF> >0x35 TIF> >0x16D TIF> >0xD0 TIF> >0xD0 TIF>TPIU fitted. >0xD0 TIF>ETM fitted. >0xD0 TIF>  FPUnit: 6 code (BP) slots and 2 literal slots >0xD0 TIF> -- CPU_WriteMem(4 bytes @ 0xE000EDFC) -- CPU_WriteMem(4 bytes @ 0xE000EDFC) -- CPU_ReadMem(4 bytes @ 0x00000000) -- CPU_ReadMem(4 bytes @ 0x00000004) (0199ms, 0944ms total)
T1F78 001:165 JLINK_Halt()  returns 0x00 (0002ms, 1144ms total)
T1F78 001:168 JLINK_IsHalted()  returns TRUE (0001ms, 1147ms total)
T1F78 001:169 JLINK_ReadMemU32(0xE000EDF0, 0x0001 Items, ...) -- CPU_ReadMem(4 bytes @ 0xE000EDF0) -- Data:  03 00 03 00  returns 0x01 (0004ms, 1147ms total)
T1F78 001:173 JLINK_WriteU32(0xE000EDF0, 0xA05F0003) -- CPU_WriteMem(4 bytes @ 0xE000EDF0)  returns 0x00 (0003ms, 1151ms total)
T1F78 001:177 JLINK_WriteU32(0xE000EDFC, 0x01000000) -- CPU_WriteMem(4 bytes @ 0xE000EDFC)  returns 0x00 (0002ms, 1155ms total)
T1F78 001:180 JLINK_ReadMemU32(0xE0002000, 0x0001 Items, ...) -- CPU_ReadMem(4 bytes @ 0xE0002000) -- Data:  60 02 00 00  returns 0x01 (0003ms, 1158ms total)
T1F78 001:183 JLINK_ReadMemU32(0xE0001000, 0x0001 Items, ...) -- CPU_ReadMem(4 bytes @ 0xE0001000) -- Data:  01 00 00 40  returns 0x01 (0004ms, 1161ms total)

                JLINK_AddMirrorAreaEx(Addr = 0x00000000, Size = 0x00000000) (0001ms, 0000ms total)
              JLINK_GetHWStatus(...)  returns 0x00 (0002ms, 1169ms total)
T1F78 001:199 JLINK_GetNumBPUnits(Type = 0xFFFFFF00) >0x108 TIF>Found SWD-DP with ID 0x2BA01477 >0x33 TIF> >0x33 TIF> >0x35 TIF> >0x33 TIF> >0x35 TIF> >0x33 TIF> >0x33 TIF> >0x35 TIF> >0x66 TIF> >0x66 TIF> >0x35 TIF> >0x16D TIF> >0xD0 TIF> >0xD0 TIF>TPIU fitted. >0xD0 TIF>ETM fitted. >0xD0 TIF>  FPUnit: 6 code (BP) slots and 2 literal slots >0xD0 TIF>  returns 0x06 (0041ms, 1172ms total)
T1F78 001:240 JLINK_GetNumBPUnits(Type = 0xF0)  returns 0x800 (0002ms, 1213ms total)
T1F78 001:242 JLINK_GetNumWPUnits()  returns 0x04 (0001ms, 1215ms total)
T1F78 001:246 JLINK_GetSpeed()  returns 0xFA0 (0001ms, 1216ms total)
T1F78 001:249 JLINK_ReadMemU32(0xE000E004, 0x0001 Items, ...) -- CPU_ReadMem(4 bytes @ 0xE000E004) -- Data:  01 00 00 00  returns 0x01 (0004ms, 1218ms total)
T1F78 001:253 JLINK_WriteMem(0xE0001000, 0x001C Bytes, ...) -- Data:  01 00 00 00 00 00 00 00 00 00 00 00 00 00 00 00 ... -- CPU_WriteMem(28 bytes @ 0xE0001000)  returns 0x1C (0004ms, 1222ms total)
T1F78 001:258 JLINK_ReadMem (0xE0001000, 0x001C Bytes, ...) -- CPU_ReadMem(28 bytes @ 0xE0001000) -- Data:  01 00 00 40 00 00 00 00 00 00 00 00 00 00 00 00 ...  returns 0x00 (0004ms, 1227ms total)
T1F78 001:262 JLINK_SetResetType(JLINKARM_RESET_TYPE_NORMAL)  returns JLINKARM_RESET_TYPE_NORMAL (0002ms, 1231ms total)
T1F78 001:264 JLINK_Reset() >0x108 TIF>Found SWD-DP with ID 0x2BA01477 >0x33 TIF> >0x33 TIF> >0x35 TIF> >0x33 TIF> >0x35 TIF> >0x33 TIF> >0x33 TIF> >0x35 TIF> >0x66 TIF> >0x66 TIF> >0x35 TIF> >0x16D TIF> >0xD0 TIF> >0xD0 TIF>TPIU fitted. >0xD0 TIF>ETM fitted. >0xD0 TIF>  FPUnit: 6 code (BP) slots and 2 literal slots >0xD0 TIF> -- CPU_WriteMem(4 bytes @ 0xE000EDFC) -- CPU_WriteMem(4 bytes @ 0xE000EDFC) -- CPU_WriteMem(4 bytes @ 0xE000EDFC) -- CPU_WriteMem(4 bytes @ 0xE000EDFC)
 -- CPU_WriteMem(4 bytes @ 0xE000EDFC) -- CPU_WriteMem(4 bytes @ 0xE0001050) -- CPU_WriteMem(4 bytes @ 0xE0001054) -- CPU_WriteMem(4 bytes @ 0xE0001058) -- CPU_WriteMem(4 bytes @ 0xE000EDFC) -- CPU_WriteMem(4 bytes @ 0xE0001058) -- CPU_ReadMem(4 bytes @ 0x00000000) -- CPU_ReadMem(4 bytes @ 0x00000004) (0204ms, 1233ms total)
T1F78 001:468 JLINK_Halt()  returns 0x00 (0003ms, 1437ms total)
T1F78 001:472 JLINK_IsHalted()  returns TRUE (0001ms, 1441ms total)
T1F78 001:482 JLINK_WriteMem(0x10000000, 0x017C Bytes, ...) -- Data:  00 BE 0A E0 0D 78 2D 06 68 40 08 24 40 00 00 D3 ... -- CPU_WriteMem(380 bytes @ 0x10000000)  returns 0x17C (0008ms, 1441ms total)
T1F78 001:490 JLINK_ReadMem (0x10000000, 0x017C Bytes, ...) -- CPU_ReadMem(384 bytes @ 0x10000000) -- Updating C cache (384 bytes @ 0x10000000) -- Read from C cache (380 bytes @ 0x10000000) -- Data:  00 BE 0A E0 0D 78 2D 06 68 40 08 24 40 00 00 D3 ...  returns 0x00 (0009ms, 1449ms total)
T1F78 001:500 JLINK_WriteReg(R0, 0x00000000)  returns 0x00 (0001ms, 1459ms total)
T1F78 001:501 JLINK_WriteReg(R1, 0x00B71B00)  returns 0x00 (0002ms, 1460ms total)
T1F78 001:503 JLINK_WriteReg(R2, 0x00000001)  returns 0x00 (0001ms, 1462ms total)
T1F78 001:504 JLINK_WriteReg(R3, 0x00000000)  returns 0x00 (0002ms, 1463ms total)
T1F78 001:506 JLINK_WriteReg(R4, 0x00000000)  returns 0x00 (0001ms, 1465ms total)
T1F78 001:508 JLINK_WriteReg(R5, 0x00000000)  returns 0x00 (0001ms, 1467ms total)
T1F78 001:509 JLINK_WriteReg(R6, 0x00000000)  returns 0x00 (0002ms, 1468ms total)
T1F78 001:511 JLINK_WriteReg(R7, 0x00000000)  returns 0x00 (0001ms, 1470ms total)
T1F78 001:513 JLINK_WriteReg(R8, 0x00000000)  returns 0x00 (0001ms, 1472ms total)
T1F78 001:515 JLINK_WriteReg(R9, 0x10000174)  returns 0x00 (0001ms, 1474ms total)
T1F78 001:516 JLINK_WriteReg(R10, 0x00000000)  returns 0x00 (0001ms, 1475ms total)
T1F78 001:518 JLINK_WriteReg(R11, 0x00000000)  returns 0x00 (0001ms, 1477ms total)
T1F78 001:520 JLINK_WriteReg(R12, 0x00000000)  returns 0x00 (0001ms, 1479ms total)
T1F78 001:521 JLINK_WriteReg(R13, 0x10000800)  returns 0x00 (0002ms, 1480ms total)
T1F78 001:523 JLINK_WriteReg(R14, 0x10000001)  returns 0x00 (0001ms, 1482ms total)
T1F78 001:525 JLINK_WriteReg(R15, 0x10000046)  returns 0x00 (0001ms, 1484ms total)
T1F78 001:526 JLINK_WriteReg(XPSR, 0x01000000)  returns 0x00 (0002ms, 1485ms total)
T1F78 001:528 JLINK_WriteReg(MSP, 0x10000800)  returns 0x00 (0001ms, 1487ms total)
T1F78 001:530 JLINK_WriteReg(PSP, 0x10000800)  returns 0x00 (0001ms, 1489ms total)
T1F78 001:532 JLINK_WriteReg(CFBP, 0x00000000)  returns 0x00 (0001ms, 1491ms total)
T1F78 001:533 JLINK_SetBPEx(Addr = 0x10000000, Type = 0xFFFFFFF2)  returns 0x00000001 (0002ms, 1492ms total)
T1F78 001:535 JLINK_Go() -- CPU_WriteMem(4 bytes @ 0xE0002000) -- CPU_WriteMem(4 bytes @ 0xE0002008) -- CPU_WriteMem(4 bytes @ 0xE000200C) -- CPU_WriteMem(4 bytes @ 0xE0002010) -- CPU_WriteMem(4 bytes @ 0xE0002014) -- CPU_WriteMem(4 bytes @ 0xE0002018) -- CPU_WriteMem(4 bytes @ 0xE000201C) (0018ms, 1494ms total)
T1F78 001:554 JLINK_IsHalted()  returns TRUE (0008ms, 1513ms total)
T1F78 001:563 JLINK_ReadReg(R15)  returns 0x10000000 (0001ms, 1513ms total)
T1F78 001:565 JLINK_ClrBPEx(BPHandle = 0x00000001)  returns 0x00 (0002ms, 1515ms total)
T1F78 001:567 JLINK_ReadReg(R0)  returns 0x00000000 (0001ms, 1517ms total)
T1F78 001:576 JLINK_WriteReg(R0, 0x00000000)  returns 0x00 (0002ms, 1526ms total)
T1F78 001:579 JLINK_WriteReg(R1, 0x00001000)  returns 0x00 (0003ms, 1529ms total)
T1F78 001:583 JLINK_WriteReg(R2, 0x000000FF)  returns 0x00 (0001ms, 1533ms total)
T1F78 001:585 JLINK_WriteReg(R3, 0x00000000)  returns 0x00 (0002ms, 1535ms total)
T1F78 001:587 JLINK_WriteReg(R4, 0x00000000)  returns 0x00 (0002ms, 1537ms total)
T1F78 001:589 JLINK_WriteReg(R5, 0x00000000)  returns 0x00 (0002ms, 1539ms total)
T1F78 001:592 JLINK_WriteReg(R6, 0x00000000)  returns 0x00 (0001ms, 1542ms total)
T1F78 001:594 JLINK_WriteReg(R7, 0x00000000)  returns 0x00 (0003ms, 1544ms total)
T1F78 001:597 JLINK_WriteReg(R8, 0x00000000)  returns 0x00 (0002ms, 1547ms total)
T1F78 001:599 JLINK_WriteReg(R9, 0x10000174)  returns 0x00 (0002ms, 1549ms total)
T1F78 001:601 JLINK_WriteReg(R10, 0x00000000)  returns 0x00 (0002ms, 1551ms total)
T1F78 001:604 JLINK_WriteReg(R11, 0x00000000)  returns 0x00 (0001ms, 1554ms total)
T1F78 001:606 JLINK_WriteReg(R12, 0x00000000)  returns 0x00 (0001ms, 1556ms total)
T1F78 001:608 JLINK_WriteReg(R13, 0x10000800)  returns 0x00 (0001ms, 1558ms total)
T1F78 001:610 JLINK_WriteReg(R14, 0x10000001)  returns 0x00 (0002ms, 1560ms total)
T1F78 001:612 JLINK_WriteReg(R15, 0x10000020)  returns 0x00 (0002ms, 1562ms total)
T1F78 001:614 JLINK_WriteReg(XPSR, 0x01000000)  returns 0x00 (0002ms, 1564ms total)
T1F78 001:616 JLINK_WriteReg(MSP, 0x10000800)  returns 0x00 (0002ms, 1566ms total)
T1F78 001:619 JLINK_WriteReg(PSP, 0x10000800)  returns 0x00 (0002ms, 1569ms total)
T1F78 001:621 JLINK_WriteReg(CFBP, 0x00000000)  returns 0x00 (0002ms, 1571ms total)
T1F78 001:623 JLINK_SetBPEx(Addr = 0x10000000, Type = 0xFFFFFFF2)  returns 0x00000002 (0002ms, 1573ms total)
T1F78 001:626 JLINK_Go() -- CPU_WriteMem(4 bytes @ 0xE0002008) -- CPU_WriteMem(4 bytes @ 0xE000200C) -- CPU_WriteMem(4 bytes @ 0xE0002010) -- CPU_WriteMem(4 bytes @ 0xE0002014) -- CPU_WriteMem(4 bytes @ 0xE0002018) -- CPU_WriteMem(4 bytes @ 0xE000201C) (0017ms, 1575ms total)
T1F78 001:643 JLINK_IsHalted()  returns TRUE (0010ms, 1592ms total)
T1F78 001:653 JLINK_ReadReg(R15)  returns 0x10000000 (0002ms, 1592ms total)
T1F78 001:655 JLINK_ClrBPEx(BPHandle = 0x00000002)  returns 0x00 (0002ms, 1594ms total)
T1F78 001:658 JLINK_ReadReg(R0)  returns 0x00000001 (0001ms, 1597ms total)
T1F78 001:660 JLINK_WriteReg(R0, 0x00000000)  returns 0x00 (0001ms, 1599ms total)
T1F78 001:662 JLINK_WriteReg(R1, 0x00001000)  returns 0x00 (0001ms, 1601ms total)
T1F78 001:664 JLINK_WriteReg(R2, 0x000000FF)  returns 0x00 (0007ms, 1603ms total)
T1F78 001:672 JLINK_WriteReg(R3, 0x00000000)  returns 0x00 (0002ms, 1611ms total)
T1F78 001:674 JLINK_WriteReg(R4, 0x00000000)  returns 0x00 (0002ms, 1613ms total)
T1F78 001:676 JLINK_WriteReg(R5, 0x00000000)  returns 0x00 (0002ms, 1615ms total)
T1F78 001:678 JLINK_WriteReg(R6, 0x00000000)  returns 0x00 (0002ms, 1617ms total)
T1F78 001:680 JLINK_WriteReg(R7, 0x00000000)  returns 0x00 (0002ms, 1619ms total)
T1F78 001:683 JLINK_WriteReg(R8, 0x00000000)  returns 0x00 (0001ms, 1622ms total)
T1F78 001:685 JLINK_WriteReg(R9, 0x10000174)  returns 0x00 (0002ms, 1624ms total)
T1F78 001:687 JLINK_WriteReg(R10, 0x00000000)  returns 0x00 (0002ms, 1626ms total)
T1F78 001:689 JLINK_WriteReg(R11, 0x00000000)  returns 0x00 (0002ms, 1628ms total)
T1F78 001:691 JLINK_WriteReg(R12, 0x00000000)  returns 0x00 (0002ms, 1630ms total)
T1F78 001:693 JLINK_WriteReg(R13, 0x10000800)  returns 0x00 (0003ms, 1632ms total)
T1F78 001:696 JLINK_WriteReg(R14, 0x10000001)  returns 0x00 (0002ms, 1635ms total)
T1F78 001:698 JLINK_WriteReg(R15, 0x100000AE)  returns 0x00 (0002ms, 1637ms total)
T1F78 001:700 JLINK_WriteReg(XPSR, 0x01000000)  returns 0x00 (0002ms, 1639ms total)
T1F78 001:703 JLINK_WriteReg(MSP, 0x10000800)  returns 0x00 (0001ms, 1641ms total)
T1F78 001:705 JLINK_WriteReg(PSP, 0x10000800)  returns 0x00 (0001ms, 1643ms total)
T1F78 001:707 JLINK_WriteReg(CFBP, 0x00000000)  returns 0x00 (0003ms, 1645ms total)
T1F78 001:710 JLINK_SetBPEx(Addr = 0x10000000, Type = 0xFFFFFFF2)  returns 0x00000003 (0002ms, 1648ms total)
T1F78 001:712 JLINK_Go() -- CPU_WriteMem(4 bytes @ 0xE0002008) -- CPU_WriteMem(4 bytes @ 0xE000200C) -- CPU_WriteMem(4 bytes @ 0xE0002010) -- CPU_WriteMem(4 bytes @ 0xE0002014) -- CPU_WriteMem(4 bytes @ 0xE0002018) -- CPU_WriteMem(4 bytes @ 0xE000201C) (0016ms, 1650ms total)
T1F78 001:728 JLINK_IsHalted()  returns FALSE (0003ms, 1666ms total)
T1F78 001:782 JLINK_IsHalted()  returns FALSE (0003ms, 1666ms total)
T1F78 001:835 JLINK_IsHalted()  returns TRUE (0007ms, 1666ms total)
T1F78 001:842 JLINK_ReadReg(R15)  returns 0x10000000 (0001ms, 1666ms total)
T1F78 001:843 JLINK_ClrBPEx(BPHandle = 0x00000003)  returns 0x00 (0001ms, 1667ms total)
T1F78 001:844 JLINK_ReadReg(R0)  returns 0x00000000 (0001ms, 1668ms total)
T1F78 001:846 JLINK_WriteReg(R0, 0x00001000)  returns 0x00 (0000ms, 1669ms total)
T1F78 001:847 JLINK_WriteReg(R1, 0x00001000)  returns 0x00 (0000ms, 1670ms total)
T1F78 001:848 JLINK_WriteReg(R2, 0x000000FF)  returns 0x00 (0000ms, 1671ms total)
T1F78 001:849 JLINK_WriteReg(R3, 0x00000000)  returns 0x00 (0000ms, 1672ms total)
T1F78 001:849 JLINK_WriteReg(R4, 0x00000000)  returns 0x00 (0001ms, 1672ms total)
T1F78 001:850 JLINK_WriteReg(R5, 0x00000000)  returns 0x00 (0001ms, 1673ms total)
T1F78 001:851 JLINK_WriteReg(R6, 0x00000000)  returns 0x00 (0002ms, 1674ms total)
T1F78 001:856 JLINK_WriteReg(R7, 0x00000000)  returns 0x00 (0001ms, 1679ms total)
T1F78 001:858 JLINK_WriteReg(R8, 0x00000000)  returns 0x00 (0000ms, 1681ms total)
T1F78 001:858 JLINK_WriteReg(R9, 0x10000174)  returns 0x00 (0001ms, 1681ms total)
T1F78 001:859 JLINK_WriteReg(R10, 0x00000000)  returns 0x00 (0001ms, 1682ms total)
T1F78 001:860 JLINK_WriteReg(R11, 0x00000000)  returns 0x00 (0001ms, 1683ms total)
T1F78 001:861 JLINK_WriteReg(R12, 0x00000000)  returns 0x00 (0001ms, 1684ms total)
T1F78 001:862 JLINK_WriteReg(R13, 0x10000800)  returns 0x00 (0001ms, 1685ms total)
T1F78 001:863 JLINK_WriteReg(R14, 0x10000001)  returns 0x00 (0001ms, 1686ms total)
T1F78 001:864 JLINK_WriteReg(R15, 0x10000020)  returns 0x00 (0007ms, 1687ms total)
T1F78 001:871 JLINK_WriteReg(XPSR, 0x01000000)  returns 0x00 (0006ms, 1694ms total)
T1F78 001:878 JLINK_WriteReg(MSP, 0x10000800)  returns 0x00 (0000ms, 1701ms total)
T1F78 001:878 JLINK_WriteReg(PSP, 0x10000800)  returns 0x00 (0001ms, 1701ms total)
T1F78 001:880 JLINK_WriteReg(CFBP, 0x00000000)  returns 0x00 (0000ms, 1702ms total)
T1F78 001:880 JLINK_SetBPEx(Addr = 0x10000000, Type = 0xFFFFFFF2)  returns 0x00000004 (0002ms, 1702ms total)
T1F78 001:882 JLINK_Go() -- CPU_WriteMem(4 bytes @ 0xE0002008) -- CPU_WriteMem(4 bytes @ 0xE000200C) -- CPU_WriteMem(4 bytes @ 0xE0002010) -- CPU_WriteMem(4 bytes @ 0xE0002014) -- CPU_WriteMem(4 bytes @ 0xE0002018) -- CPU_WriteMem(4 bytes @ 0xE000201C) (0016ms, 1704ms total)
T1F78 001:898 JLINK_IsHalted()  returns TRUE (0008ms, 1720ms total)
T1F78 001:906 JLINK_ReadReg(R15)  returns 0x10000000 (0001ms, 1720ms total)
T1F78 001:907 JLINK_ClrBPEx(BPHandle = 0x00000004)  returns 0x00 (0001ms, 1721ms total)
T1F78 001:908 JLINK_ReadReg(R0)  returns 0x00000001 (0001ms, 1722ms total)
T1F78 001:909 JLINK_WriteReg(R0, 0x00001000)  returns 0x00 (0001ms, 1723ms total)
T1F78 001:910 JLINK_WriteReg(R1, 0x00001000)  returns 0x00 (0001ms, 1724ms total)
T1F78 001:911 JLINK_WriteReg(R2, 0x000000FF)  returns 0x00 (0000ms, 1725ms total)
T1F78 001:912 JLINK_WriteReg(R3, 0x00000000)  returns 0x00 (0000ms, 1726ms total)
T1F78 001:914 JLINK_WriteReg(R4, 0x00000000)  returns 0x00 (0006ms, 1728ms total)
T1F78 001:920 JLINK_WriteReg(R5, 0x00000000)  returns 0x00 (0001ms, 1734ms total)
T1F78 001:921 JLINK_WriteReg(R6, 0x00000000)  returns 0x00 (0001ms, 1735ms total)
T1F78 001:922 JLINK_WriteReg(R7, 0x00000000)  returns 0x00 (0001ms, 1736ms total)
T1F78 001:923 JLINK_WriteReg(R8, 0x00000000)  returns 0x00 (0001ms, 1737ms total)
T1F78 001:924 JLINK_WriteReg(R9, 0x10000174)  returns 0x00 (0001ms, 1738ms total)
T1F78 001:925 JLINK_WriteReg(R10, 0x00000000)  returns 0x00 (0001ms, 1739ms total)
T1F78 001:926 JLINK_WriteReg(R11, 0x00000000)  returns 0x00 (0001ms, 1740ms total)
T1F78 001:927 JLINK_WriteReg(R12, 0x00000000)  returns 0x00 (0001ms, 1741ms total)
T1F78 001:928 JLINK_WriteReg(R13, 0x10000800)  returns 0x00 (0001ms, 1742ms total)
T1F78 001:929 JLINK_WriteReg(R14, 0x10000001)  returns 0x00 (0001ms, 1743ms total)
T1F78 001:930 JLINK_WriteReg(R15, 0x100000AE)  returns 0x00 (0001ms, 1744ms total)
T1F78 001:931 JLINK_WriteReg(XPSR, 0x01000000)  returns 0x00 (0001ms, 1745ms total)
T1F78 001:932 JLINK_WriteReg(MSP, 0x10000800)  returns 0x00 (0001ms, 1746ms total)
T1F78 001:933 JLINK_WriteReg(PSP, 0x10000800)  returns 0x00 (0005ms, 1747ms total)
T1F78 001:938 JLINK_WriteReg(CFBP, 0x00000000)  returns 0x00 (0001ms, 1752ms total)
T1F78 001:939 JLINK_SetBPEx(Addr = 0x10000000, Type = 0xFFFFFFF2)  returns 0x00000005 (0001ms, 1753ms total)
T1F78 001:940 JLINK_Go() -- CPU_WriteMem(4 bytes @ 0xE0002008) -- CPU_WriteMem(4 bytes @ 0xE000200C) -- CPU_WriteMem(4 bytes @ 0xE0002010) -- CPU_WriteMem(4 bytes @ 0xE0002014) -- CPU_WriteMem(4 bytes @ 0xE0002018) -- CPU_WriteMem(4 bytes @ 0xE000201C) (0011ms, 1754ms total)
T1F78 001:952 JLINK_IsHalted()  returns FALSE (0002ms, 1766ms total)
T1F78 002:004 JLINK_IsHalted()  returns FALSE (0002ms, 1766ms total)
T1F78 002:056 JLINK_IsHalted()  returns TRUE (0007ms, 1766ms total)
T1F78 002:063 JLINK_ReadReg(R15)  returns 0x10000000 (0001ms, 1766ms total)
T1F78 002:064 JLINK_ClrBPEx(BPHandle = 0x00000005)  returns 0x00 (0001ms, 1767ms total)
T1F78 002:065 JLINK_ReadReg(R0)  returns 0x00000000 (0001ms, 1768ms total)
T1F78 002:067 JLINK_WriteReg(R0, 0x00002000)  returns 0x00 (0001ms, 1769ms total)
T1F78 002:068 JLINK_WriteReg(R1, 0x00001000)  returns 0x00 (0001ms, 1770ms total)
T1F78 002:069 JLINK_WriteReg(R2, 0x000000FF)  returns 0x00 (0005ms, 1771ms total)
T1F78 002:074 JLINK_WriteReg(R3, 0x00000000)  returns 0x00 (0001ms, 1776ms total)
T1F78 002:075 JLINK_WriteReg(R4, 0x00000000)  returns 0x00 (0001ms, 1777ms total)
T1F78 002:076 JLINK_WriteReg(R5, 0x00000000)  returns 0x00 (0001ms, 1778ms total)
T1F78 002:077 JLINK_WriteReg(R6, 0x00000000)  returns 0x00 (0001ms, 1779ms total)
T1F78 002:078 JLINK_WriteReg(R7, 0x00000000)  returns 0x00 (0001ms, 1780ms total)
T1F78 002:079 JLINK_WriteReg(R8, 0x00000000)  returns 0x00 (0001ms, 1781ms total)
T1F78 002:080 JLINK_WriteReg(R9, 0x10000174)  returns 0x00 (0001ms, 1782ms total)
T1F78 002:081 JLINK_WriteReg(R10, 0x00000000)  returns 0x00 (0001ms, 1783ms total)
T1F78 002:082 JLINK_WriteReg(R11, 0x00000000)  returns 0x00 (0001ms, 1784ms total)
T1F78 002:083 JLINK_WriteReg(R12, 0x00000000)  returns 0x00 (0003ms, 1785ms total)
T1F78 002:086 JLINK_WriteReg(R13, 0x10000800)  returns 0x00 (0001ms, 1788ms total)
T1F78 002:087 JLINK_WriteReg(R14, 0x10000001)  returns 0x00 (0001ms, 1789ms total)
T1F78 002:088 JLINK_WriteReg(R15, 0x10000020)  returns 0x00 (0001ms, 1790ms total)
T1F78 002:089 JLINK_WriteReg(XPSR, 0x01000000)  returns 0x00 (0001ms, 1791ms total)
T1F78 002:090 JLINK_WriteReg(MSP, 0x10000800)  returns 0x00 (0001ms, 1792ms total)
T1F78 002:091 JLINK_WriteReg(PSP, 0x10000800)  returns 0x00 (0001ms, 1793ms total)
T1F78 002:092 JLINK_WriteReg(CFBP, 0x00000000)  returns 0x00 (0001ms, 1794ms total)
T1F78 002:093 JLINK_SetBPEx(Addr = 0x10000000, Type = 0xFFFFFFF2)  returns 0x00000006 (0001ms, 1795ms total)
T1F78 002:094 JLINK_Go() -- CPU_WriteMem(4 bytes @ 0xE0002008) -- CPU_WriteMem(4 bytes @ 0xE000200C) -- CPU_WriteMem(4 bytes @ 0xE0002010) -- CPU_WriteMem(4 bytes @ 0xE0002014) -- CPU_WriteMem(4 bytes @ 0xE0002018) -- CPU_WriteMem(4 bytes @ 0xE000201C) (0012ms, 1796ms total)
T1F78 002:106 JLINK_IsHalted()  returns TRUE (0009ms, 1808ms total)
T1F78 002:115 JLINK_ReadReg(R15)  returns 0x10000000 (0001ms, 1808ms total)
T1F78 002:116 JLINK_ClrBPEx(BPHandle = 0x00000006)  returns 0x00 (0001ms, 1809ms total)
T1F78 002:117 JLINK_ReadReg(R0)  returns 0x00000001 (0001ms, 1810ms total)
T1F78 002:118 JLINK_WriteReg(R0, 0x00002000)  returns 0x00 (0001ms, 1811ms total)
T1F78 002:119 JLINK_WriteReg(R1, 0x00001000)  returns 0x00 (0001ms, 1812ms total)
T1F78 002:120 JLINK_WriteReg(R2, 0x000000FF)  returns 0x00 (0001ms, 1813ms total)
T1F78 002:121 JLINK_WriteReg(R3, 0x00000000)  returns 0x00 (0000ms, 1814ms total)
T1F78 002:122 JLINK_WriteReg(R4, 0x00000000)  returns 0x00 (0000ms, 1815ms total)
T1F78 002:123 JLINK_WriteReg(R5, 0x00000000)  returns 0x00 (0000ms, 1816ms total)
T1F78 002:124 JLINK_WriteReg(R6, 0x00000000)  returns 0x00 (0001ms, 1817ms total)
T1F78 002:125 JLINK_WriteReg(R7, 0x00000000)  returns 0x00 (0001ms, 1818ms total)
T1F78 002:126 JLINK_WriteReg(R8, 0x00000000)  returns 0x00 (0000ms, 1819ms total)
T1F78 002:127 JLINK_WriteReg(R9, 0x10000174)  returns 0x00 (0000ms, 1820ms total)
T1F78 002:128 JLINK_WriteReg(R10, 0x00000000)  returns 0x00 (0000ms, 1821ms total)
T1F78 002:129 JLINK_WriteReg(R11, 0x00000000)  returns 0x00 (0000ms, 1822ms total)
T1F78 002:130 JLINK_WriteReg(R12, 0x00000000)  returns 0x00 (0000ms, 1823ms total)
T1F78 002:131 JLINK_WriteReg(R13, 0x10000800)  returns 0x00 (0000ms, 1824ms total)
T1F78 002:132 JLINK_WriteReg(R14, 0x10000001)  returns 0x00 (0000ms, 1825ms total)
T1F78 002:133 JLINK_WriteReg(R15, 0x100000AE)  returns 0x00 (0001ms, 1826ms total)
T1F78 002:134 JLINK_WriteReg(XPSR, 0x01000000)  returns 0x00 (0001ms, 1827ms total)
T1F78 002:135 JLINK_WriteReg(MSP, 0x10000800)  returns 0x00 (0001ms, 1828ms total)
T1F78 002:136 JLINK_WriteReg(PSP, 0x10000800)  returns 0x00 (0000ms, 1829ms total)
T1F78 002:137 JLINK_WriteReg(CFBP, 0x00000000)  returns 0x00 (0000ms, 1830ms total)
T1F78 002:138 JLINK_SetBPEx(Addr = 0x10000000, Type = 0xFFFFFFF2)  returns 0x00000007 (0000ms, 1831ms total)
T1F78 002:139 JLINK_Go() -- CPU_WriteMem(4 bytes @ 0xE0002008) -- CPU_WriteMem(4 bytes @ 0xE000200C) -- CPU_WriteMem(4 bytes @ 0xE0002010) -- CPU_WriteMem(4 bytes @ 0xE0002014) -- CPU_WriteMem(4 bytes @ 0xE0002018) -- CPU_WriteMem(4 bytes @ 0xE000201C) (0011ms, 1832ms total)
T1F78 002:150 JLINK_IsHalted()  returns FALSE (0002ms, 1843ms total)
T1F78 002:203 JLINK_IsHalted()  returns FALSE (0002ms, 1843ms total)
T1F78 002:255 JLINK_IsHalted()  returns TRUE (0007ms, 1843ms total)
T1F78 002:262 JLINK_ReadReg(R15)  returns 0x10000000 (0001ms, 1843ms total)
T1F78 002:263 JLINK_ClrBPEx(BPHandle = 0x00000007)  returns 0x00 (0001ms, 1844ms total)
T1F78 002:264 JLINK_ReadReg(R0)  returns 0x00000000 (0001ms, 1845ms total)
T1F78 002:366 JLINK_WriteReg(R0, 0x00003000)  returns 0x00 (0011ms, 1847ms total)
T1F78 002:378 JLINK_WriteReg(R1, 0x00001000)  returns 0x00 (0001ms, 1859ms total)
T1F78 002:380 JLINK_WriteReg(R2, 0x000000FF)  returns 0x00 (0001ms, 1861ms total)
T1F78 002:382 JLINK_WriteReg(R3, 0x00000000)  returns 0x00 (0002ms, 1863ms total)
T1F78 002:384 JLINK_WriteReg(R4, 0x00000000)  returns 0x00 (0002ms, 1865ms total)
T1F78 002:386 JLINK_WriteReg(R5, 0x00000000)  returns 0x00 (0002ms, 1867ms total)
T1F78 002:388 JLINK_WriteReg(R6, 0x00000000)  returns 0x00 (0002ms, 1869ms total)
T1F78 002:390 JLINK_WriteReg(R7, 0x00000000)  returns 0x00 (0002ms, 1871ms total)
T1F78 002:392 JLINK_WriteReg(R8, 0x00000000)  returns 0x00 (0006ms, 1873ms total)
T1F78 002:399 JLINK_WriteReg(R9, 0x10000174)  returns 0x00 (0001ms, 1880ms total)
T1F78 002:401 JLINK_WriteReg(R10, 0x00000000)  returns 0x00 (0002ms, 1882ms total)
T1F78 002:403 JLINK_WriteReg(R11, 0x00000000)  returns 0x00 (0002ms, 1884ms total)
T1F78 002:405 JLINK_WriteReg(R12, 0x00000000)  returns 0x00 (0002ms, 1886ms total)
T1F78 002:407 JLINK_WriteReg(R13, 0x10000800)  returns 0x00 (0002ms, 1888ms total)
T1F78 002:409 JLINK_WriteReg(R14, 0x10000001)  returns 0x00 (0002ms, 1890ms total)
T1F78 002:412 JLINK_WriteReg(R15, 0x10000020)  returns 0x00 (0001ms, 1893ms total)
T1F78 002:414 JLINK_WriteReg(XPSR, 0x01000000)  returns 0x00 (0001ms, 1895ms total)
T1F78 002:417 JLINK_WriteReg(MSP, 0x10000800)  returns 0x00 (0002ms, 1898ms total)
T1F78 002:419 JLINK_WriteReg(PSP, 0x10000800)  returns 0x00 (0003ms, 1900ms total)
T1F78 002:422 JLINK_WriteReg(CFBP, 0x00000000)  returns 0x00 (0002ms, 1903ms total)
T1F78 002:424 JLINK_SetBPEx(Addr = 0x10000000, Type = 0xFFFFFFF2)  returns 0x00000008 (0002ms, 1905ms total)
T1F78 002:427 JLINK_Go() -- CPU_WriteMem(4 bytes @ 0xE0002008) -- CPU_WriteMem(4 bytes @ 0xE000200C) -- CPU_WriteMem(4 bytes @ 0xE0002010) -- CPU_WriteMem(4 bytes @ 0xE0002014) -- CPU_WriteMem(4 bytes @ 0xE0002018) -- CPU_WriteMem(4 bytes @ 0xE000201C) (0043ms, 1908ms total)
T1F78 002:470 JLINK_IsHalted()  returns TRUE (0010ms, 1951ms total)
T1F78 002:480 JLINK_ReadReg(R15)  returns 0x10000000 (0002ms, 1951ms total)
T1F78 002:483 JLINK_ClrBPEx(BPHandle = 0x00000008)  returns 0x00 (0001ms, 1953ms total)
T1F78 002:489 JLINK_ReadReg(R0)  returns 0x00000001 (0013ms, 1959ms total)
T1F78 002:502 JLINK_WriteReg(R0, 0x00003000)  returns 0x00 (0003ms, 1972ms total)
T1F78 002:506 JLINK_WriteReg(R1, 0x00001000)  returns 0x00 (0002ms, 1976ms total)
T1F78 002:508 JLINK_WriteReg(R2, 0x000000FF)  returns 0x00 (0002ms, 1978ms total)
T1F78 002:511 JLINK_WriteReg(R3, 0x00000000)  returns 0x00 (0002ms, 1981ms total)
T1F78 002:513 JLINK_WriteReg(R4, 0x00000000)  returns 0x00 (0003ms, 1983ms total)
T1F78 002:518 JLINK_WriteReg(R5, 0x00000000)  returns 0x00 (0001ms, 1986ms total)
T1F78 002:520 JLINK_WriteReg(R6, 0x00000000)  returns 0x00 (0001ms, 1988ms total)
T1F78 002:522 JLINK_WriteReg(R7, 0x00000000)  returns 0x00 (0002ms, 1990ms total)
T1F78 002:524 JLINK_WriteReg(R8, 0x00000000)  returns 0x00 (0002ms, 1992ms total)
T1F78 002:526 JLINK_WriteReg(R9, 0x10000174)  returns 0x00 (0002ms, 1994ms total)
T1F78 002:531 JLINK_WriteReg(R10, 0x00000000)  returns 0x00 (0002ms, 1997ms total)
T1F78 002:533 JLINK_WriteReg(R11, 0x00000000)  returns 0x00 (0033ms, 1999ms total)
T1F78 002:566 JLINK_WriteReg(R12, 0x00000000)  returns 0x00 (0033ms, 2032ms total)
T1F78 002:603 JLINK_WriteReg(R13, 0x10000800)  returns 0x00 (0007ms, 2066ms total)
T1F78 002:611 JLINK_WriteReg(R14, 0x10000001)  returns 0x00 (0017ms, 2074ms total)
T1F78 002:629 JLINK_WriteReg(R15, 0x100000AE)  returns 0x00 (0001ms, 2092ms total)
T1F78 002:630 JLINK_WriteReg(XPSR, 0x01000000)  returns 0x00 (0001ms, 2093ms total)
T1F78 002:631 JLINK_WriteReg(MSP, 0x10000800)  returns 0x00 (0001ms, 2094ms total)
T1F78 002:632 JLINK_WriteReg(PSP, 0x10000800)  returns 0x00 (0001ms, 2095ms total)
T1F78 002:633 JLINK_WriteReg(CFBP, 0x00000000)  returns 0x00 (0001ms, 2096ms total)
T1F78 002:634 JLINK_SetBPEx(Addr = 0x10000000, Type = 0xFFFFFFF2)  returns 0x00000009 (0001ms, 2097ms total)
T1F78 002:640 JLINK_Go() -- CPU_WriteMem(4 bytes @ 0xE0002008) -- CPU_WriteMem(4 bytes @ 0xE000200C) -- CPU_WriteMem(4 bytes @ 0xE0002010) -- CPU_WriteMem(4 bytes @ 0xE0002014) -- CPU_WriteMem(4 bytes @ 0xE0002018) -- CPU_WriteMem(4 bytes @ 0xE000201C) (0012ms, 2103ms total)
T1F78 002:652 JLINK_IsHalted()  returns FALSE (0002ms, 2115ms total)
T1F78 002:704 JLINK_IsHalted()  returns FALSE (0002ms, 2115ms total)
T1F78 002:757 JLINK_IsHalted()  returns TRUE (0009ms, 2115ms total)
T1F78 002:767 JLINK_ReadReg(R15)  returns 0x10000000 (0000ms, 2115ms total)
T1F78 002:768 JLINK_ClrBPEx(BPHandle = 0x00000009)  returns 0x00 (0000ms, 2116ms total)
T1F78 002:769 JLINK_ReadReg(R0)  returns 0x00000000 (0001ms, 2117ms total)
T1F78 002:772 JLINK_WriteReg(R0, 0x00000001)  returns 0x00 (0001ms, 2118ms total)
T1F78 002:773 JLINK_WriteReg(R1, 0x00001000)  returns 0x00 (0001ms, 2119ms total)
T1F78 002:774 JLINK_WriteReg(R2, 0x000000FF)  returns 0x00 (0002ms, 2120ms total)
T1F78 002:776 JLINK_WriteReg(R3, 0x00000000)  returns 0x00 (0001ms, 2122ms total)
T1F78 002:777 JLINK_WriteReg(R4, 0x00000000)  returns 0x00 (0001ms, 2123ms total)
T1F78 002:778 JLINK_WriteReg(R5, 0x00000000)  returns 0x00 (0001ms, 2124ms total)
T1F78 002:779 JLINK_WriteReg(R6, 0x00000000)  returns 0x00 (0001ms, 2125ms total)
T1F78 002:780 JLINK_WriteReg(R7, 0x00000000)  returns 0x00 (0001ms, 2126ms total)
T1F78 002:781 JLINK_WriteReg(R8, 0x00000000)  returns 0x00 (0001ms, 2127ms total)
T1F78 002:782 JLINK_WriteReg(R9, 0x10000174)  returns 0x00 (0001ms, 2128ms total)
T1F78 002:783 JLINK_WriteReg(R10, 0x00000000)  returns 0x00 (0001ms, 2129ms total)
T1F78 002:784 JLINK_WriteReg(R11, 0x00000000)  returns 0x00 (0001ms, 2130ms total)
T1F78 002:785 JLINK_WriteReg(R12, 0x00000000)  returns 0x00 (0010ms, 2131ms total)
T1F78 002:795 JLINK_WriteReg(R13, 0x10000800)  returns 0x00 (0001ms, 2141ms total)
T1F78 002:796 JLINK_WriteReg(R14, 0x10000001)  returns 0x00 (0001ms, 2142ms total)
T1F78 002:798 JLINK_WriteReg(R15, 0x10000068)  returns 0x00 (0000ms, 2143ms total)
T1F78 002:799 JLINK_WriteReg(XPSR, 0x01000000)  returns 0x00 (0001ms, 2144ms total)
T1F78 002:800 JLINK_WriteReg(MSP, 0x10000800)  returns 0x00 (0003ms, 2145ms total)
T1F78 002:803 JLINK_WriteReg(PSP, 0x10000800)  returns 0x00 (0001ms, 2148ms total)
T1F78 002:804 JLINK_WriteReg(CFBP, 0x00000000)  returns 0x00 (0001ms, 2149ms total)
T1F78 002:805 JLINK_SetBPEx(Addr = 0x10000000, Type = 0xFFFFFFF2)  returns 0x0000000A (0002ms, 2150ms total)
T1F78 002:807 JLINK_Go() -- CPU_WriteMem(4 bytes @ 0xE0002008) -- CPU_WriteMem(4 bytes @ 0xE000200C) -- CPU_WriteMem(4 bytes @ 0xE0002010) -- CPU_WriteMem(4 bytes @ 0xE0002014) -- CPU_WriteMem(4 bytes @ 0xE0002018) -- CPU_WriteMem(4 bytes @ 0xE000201C) (0022ms, 2152ms total)
T1F78 002:829 JLINK_IsHalted()  returns TRUE (0046ms, 2174ms total)
T1F78 002:905 JLINK_ReadReg(R15)  returns 0x10000000 (0001ms, 2174ms total)
T1F78 002:925 JLINK_ClrBPEx(BPHandle = 0x0000000A)  returns 0x00 (0030ms, 2194ms total)
T1F78 002:955 JLINK_ReadReg(R0)  returns 0x00000000 (0020ms, 2224ms total)
T1F78 003:037 JLINK_WriteMem(0x10000000, 0x017C Bytes, ...) -- Data:  00 BE 0A E0 0D 78 2D 06 68 40 08 24 40 00 00 D3 ... -- CPU_WriteMem(380 bytes @ 0x10000000)  returns 0x17C (0034ms, 2244ms total)
T1F78 003:084 JLINK_ReadMem (0x10000000, 0x017C Bytes, ...) -- CPU_ReadMem(384 bytes @ 0x10000000) -- Updating C cache (384 bytes @ 0x10000000) -- Read from C cache (380 bytes @ 0x10000000) -- Data:  00 BE 0A E0 0D 78 2D 06 68 40 08 24 40 00 00 D3 ...  returns 0x00 (0030ms, 2278ms total)
T1F78 003:119 JLINK_WriteReg(R0, 0x00000000)  returns 0x00 (0001ms, 2308ms total)
T1F78 003:124 JLINK_WriteReg(R1, 0x00B71B00)  returns 0x00 (0000ms, 2309ms total)
T1F78 003:129 JLINK_WriteReg(R2, 0x00000002)  returns 0x00 (0009ms, 2314ms total)
T1F78 003:138 JLINK_WriteReg(R3, 0x00000000)  returns 0x00 (0007ms, 2323ms total)
T1F78 003:145 JLINK_WriteReg(R4, 0x00000000)  returns 0x00 (0006ms, 2330ms total)
T1F78 003:151 JLINK_WriteReg(R5, 0x00000000)  returns 0x00 (0004ms, 2336ms total)
T1F78 003:161 JLINK_WriteReg(R6, 0x00000000)  returns 0x00 (0001ms, 2340ms total)
T1F78 003:171 JLINK_WriteReg(R7, 0x00000000)  returns 0x00 (0001ms, 2341ms total)
T1F78 003:175 JLINK_WriteReg(R8, 0x00000000)  returns 0x00 (0007ms, 2345ms total)
T1F78 003:182 JLINK_WriteReg(R9, 0x10000174)  returns 0x00 (0004ms, 2352ms total)
T1F78 003:186 JLINK_WriteReg(R10, 0x00000000)  returns 0x00 (0006ms, 2356ms total)
T1F78 003:193 JLINK_WriteReg(R11, 0x00000000)  returns 0x00 (0009ms, 2363ms total)
T1F78 003:205 JLINK_WriteReg(R12, 0x00000000)  returns 0x00 (0016ms, 2372ms total)
T1F78 003:226 JLINK_WriteReg(R13, 0x10000800)  returns 0x00 (0006ms, 2393ms total)
T1F78 003:233 JLINK_WriteReg(R14, 0x10000001)  returns 0x00 (0003ms, 2400ms total)
T1F78 003:237 JLINK_WriteReg(R15, 0x10000046)  returns 0x00 (0005ms, 2404ms total)
T1F78 003:242 JLINK_WriteReg(XPSR, 0x01000000)  returns 0x00 (0011ms, 2409ms total)
T1F78 003:256 JLINK_WriteReg(MSP, 0x10000800)  returns 0x00 (0001ms, 2421ms total)
T1F78 003:262 JLINK_WriteReg(PSP, 0x10000800)  returns 0x00 (0001ms, 2422ms total)
T1F78 003:267 JLINK_WriteReg(CFBP, 0x00000000)  returns 0x00 (0004ms, 2427ms total)
T1F78 003:272 JLINK_SetBPEx(Addr = 0x10000000, Type = 0xFFFFFFF2)  returns 0x0000000B (0001ms, 2432ms total)
T1F78 003:273 JLINK_Go() -- CPU_WriteMem(4 bytes @ 0xE0002008) -- CPU_WriteMem(4 bytes @ 0xE000200C) -- CPU_WriteMem(4 bytes @ 0xE0002010) -- CPU_WriteMem(4 bytes @ 0xE0002014) -- CPU_WriteMem(4 bytes @ 0xE0002018) -- CPU_WriteMem(4 bytes @ 0xE000201C) (0082ms, 2433ms total)
T1F78 003:355 JLINK_IsHalted()  returns TRUE (0025ms, 2515ms total)
T1F78 003:381 JLINK_ReadReg(R15)  returns 0x10000000 (0003ms, 2515ms total)
T1F78 003:384 JLINK_ClrBPEx(BPHandle = 0x0000000B)  returns 0x00 (0002ms, 2518ms total)
T1F78 003:386 JLINK_ReadReg(R0)  returns 0x00000000 (0003ms, 2520ms total)
T1F78 003:395 JLINK_WriteMem(0x1000019C, 0x0400 Bytes, ...) -- Data:  28 03 00 10 59 20 00 00 5D 20 00 00 5F 20 00 00 ... -- CPU_WriteMem(1024 bytes @ 0x1000019C)  returns 0x400 (0019ms, 2523ms total)
T1F78 003:416 JLINK_ReadMem (0x1000019C, 0x0400 Bytes, ...) -- CPU_ReadMem(1088 bytes @ 0x10000180) -- Updating C cache (1088 bytes @ 0x10000180) -- Read from C cache (1024 bytes @ 0x1000019C) -- Data:  28 03 00 10 59 20 00 00 5D 20 00 00 5F 20 00 00 ...  returns 0x00 (0029ms, 2542ms total)
T1F78 003:448 JLINK_WriteReg(R0, 0x00000000)  returns 0x00 (0001ms, 2571ms total)
T1F78 003:452 JLINK_WriteReg(R1, 0x00000400)  returns 0x00 (0004ms, 2575ms total)
T1F78 003:456 JLINK_WriteReg(R2, 0x1000019C)  returns 0x00 (0008ms, 2579ms total)
T1F78 003:465 JLINK_WriteReg(R3, 0x00000000)  returns 0x00 (0003ms, 2588ms total)
T1F78 003:468 JLINK_WriteReg(R4, 0x00000000)  returns 0x00 (0004ms, 2591ms total)
T1F78 003:475 JLINK_WriteReg(R5, 0x00000000)  returns 0x00 (0004ms, 2595ms total)
T1F78 003:479 JLINK_WriteReg(R6, 0x00000000)  returns 0x00 (0004ms, 2599ms total)
T1F78 003:483 JLINK_WriteReg(R7, 0x00000000)  returns 0x00 (0003ms, 2603ms total)
T1F78 003:488 JLINK_WriteReg(R8, 0x00000000)  returns 0x00 (0004ms, 2606ms total)
T1F78 003:495 JLINK_WriteReg(R9, 0x10000174)  returns 0x00 (0005ms, 2610ms total)
T1F78 003:500 JLINK_WriteReg(R10, 0x00000000)  returns 0x00 (0003ms, 2615ms total)
T1F78 003:507 JLINK_WriteReg(R11, 0x00000000)  returns 0x00 (0001ms, 2618ms total)
T1F78 003:511 JLINK_WriteReg(R12, 0x00000000)  returns 0x00 (0000ms, 2619ms total)
T1F78 003:515 JLINK_WriteReg(R13, 0x10000800)  returns 0x00 (0003ms, 2623ms total)
T1F78 003:518 JLINK_WriteReg(R14, 0x10000001)  returns 0x00 (0004ms, 2626ms total)
T1F78 003:522 JLINK_WriteReg(R15, 0x100000F4)  returns 0x00 (0004ms, 2630ms total)
T1F78 003:528 JLINK_WriteReg(XPSR, 0x01000000)  returns 0x00 (0005ms, 2636ms total)
T1F78 003:533 JLINK_WriteReg(MSP, 0x10000800)  returns 0x00 (0003ms, 2641ms total)
T1F78 003:536 JLINK_WriteReg(PSP, 0x10000800)  returns 0x00 (0020ms, 2644ms total)
T1F78 003:556 JLINK_WriteReg(CFBP, 0x00000000)  returns 0x00 (0006ms, 2664ms total)
T1F78 003:565 JLINK_SetBPEx(Addr = 0x10000000, Type = 0xFFFFFFF2)  returns 0x0000000C (0008ms, 2670ms total)
T1F78 003:573 JLINK_Go() -- CPU_WriteMem(4 bytes @ 0xE0002008) -- CPU_WriteMem(4 bytes @ 0xE000200C) -- CPU_WriteMem(4 bytes @ 0xE0002010) -- CPU_WriteMem(4 bytes @ 0xE0002014) -- CPU_WriteMem(4 bytes @ 0xE0002018) -- CPU_WriteMem(4 bytes @ 0xE000201C) (0203ms, 2678ms total)
T1F78 003:791 JLINK_IsHalted()  returns TRUE (0125ms, 2881ms total)
T1F78 003:931 JLINK_ReadReg(R15)  returns 0x10000000 (0001ms, 2881ms total)
T1F78 003:933 JLINK_ClrBPEx(BPHandle = 0x0000000C)  returns 0x00 (0000ms, 2882ms total)
T1F78 003:934 JLINK_ReadReg(R0)  returns 0x00000000 (0001ms, 2883ms total)
T1F78 003:936 JLINK_WriteMem(0x1000019C, 0x0400 Bytes, ...) -- Data:  40 01 46 48 D0 F8 88 00 C0 F3 07 40 00 F1 01 00 ... -- CPU_WriteMem(1024 bytes @ 0x1000019C)  returns 0x400 (0033ms, 2884ms total)
T1F78 003:969 JLINK_ReadMem (0x1000019C, 0x0400 Bytes, ...) -- CPU_ReadMem(1088 bytes @ 0x10000180) -- Updating C cache (1088 bytes @ 0x10000180) -- Read from C cache (1024 bytes @ 0x1000019C) -- Data:  40 01 46 48 D0 F8 88 00 C0 F3 07 40 00 F1 01 00 ...  returns 0x00 (0016ms, 2917ms total)
T1F78 003:986 JLINK_WriteReg(R0, 0x00000400)  returns 0x00 (0000ms, 2934ms total)
T1F78 003:987 JLINK_WriteReg(R1, 0x00000400)  returns 0x00 (0000ms, 2935ms total)
T1F78 003:988 JLINK_WriteReg(R2, 0x1000019C)  returns 0x00 (0001ms, 2936ms total)
T1F78 003:989 JLINK_WriteReg(R3, 0x00000000)  returns 0x00 (0000ms, 2937ms total)
T1F78 003:990 JLINK_WriteReg(R4, 0x00000000)  returns 0x00 (0000ms, 2938ms total)
T1F78 003:991 JLINK_WriteReg(R5, 0x00000000)  returns 0x00 (0000ms, 2939ms total)
T1F78 003:992 JLINK_WriteReg(R6, 0x00000000)  returns 0x00 (0000ms, 2940ms total)
T1F78 003:993 JLINK_WriteReg(R7, 0x00000000)  returns 0x00 (0000ms, 2941ms total)
T1F78 003:996 JLINK_WriteReg(R8, 0x00000000)  returns 0x00 (0001ms, 2944ms total)
T1F78 003:998 JLINK_WriteReg(R9, 0x10000174)  returns 0x00 (0001ms, 2945ms total)
T1F78 003:999 JLINK_WriteReg(R10, 0x00000000)  returns 0x00 (0001ms, 2946ms total)
T1F78 004:000 JLINK_WriteReg(R11, 0x00000000)  returns 0x00 (0001ms, 2947ms total)
T1F78 004:001 JLINK_WriteReg(R12, 0x00000000)  returns 0x00 (0001ms, 2948ms total)
T1F78 004:002 JLINK_WriteReg(R13, 0x10000800)  returns 0x00 (0001ms, 2949ms total)
T1F78 004:003 JLINK_WriteReg(R14, 0x10000001)  returns 0x00 (0001ms, 2950ms total)
T1F78 004:004 JLINK_WriteReg(R15, 0x100000F4)  returns 0x00 (0001ms, 2951ms total)
T1F78 004:005 JLINK_WriteReg(XPSR, 0x01000000)  returns 0x00 (0001ms, 2952ms total)
T1F78 004:006 JLINK_WriteReg(MSP, 0x10000800)  returns 0x00 (0001ms, 2953ms total)
T1F78 004:007 JLINK_WriteReg(PSP, 0x10000800)  returns 0x00 (0001ms, 2954ms total)
T1F78 004:008 JLINK_WriteReg(CFBP, 0x00000000)  returns 0x00 (0001ms, 2955ms total)
T1F78 004:009 JLINK_SetBPEx(Addr = 0x10000000, Type = 0xFFFFFFF2)  returns 0x0000000D (0001ms, 2956ms total)
T1F78 004:010 JLINK_Go() -- CPU_WriteMem(4 bytes @ 0xE0002008) -- CPU_WriteMem(4 bytes @ 0xE000200C) -- CPU_WriteMem(4 bytes @ 0xE0002010) -- CPU_WriteMem(4 bytes @ 0xE0002014) -- CPU_WriteMem(4 bytes @ 0xE0002018) -- CPU_WriteMem(4 bytes @ 0xE000201C) (0021ms, 2957ms total)
T1F78 004:031 JLINK_IsHalted()  returns FALSE (0002ms, 2978ms total)
T1F78 004:084 JLINK_IsHalted()  returns TRUE (0007ms, 2978ms total)
T1F78 004:091 JLINK_ReadReg(R15)  returns 0x10000000 (0008ms, 2978ms total)
T1F78 004:099 JLINK_ClrBPEx(BPHandle = 0x0000000D)  returns 0x00 (0001ms, 2986ms total)
T1F78 004:100 JLINK_ReadReg(R0)  returns 0x00000000 (0002ms, 2987ms total)
T1F78 004:103 JLINK_WriteMem(0x1000019C, 0x0400 Bytes, ...) -- Data:  B8 42 E4 D8 6D 1C 55 48 00 6A 54 49 C9 69 08 44 ... -- CPU_WriteMem(1024 bytes @ 0x1000019C)  returns 0x400 (0016ms, 2989ms total)
T1F78 004:121 JLINK_ReadMem (0x1000019C, 0x0400 Bytes, ...) -- CPU_ReadMem(1088 bytes @ 0x10000180) -- Updating C cache (1088 bytes @ 0x10000180) -- Read from C cache (1024 bytes @ 0x1000019C) -- Data:  B8 42 E4 D8 6D 1C 55 48 00 6A 54 49 C9 69 08 44 ...  returns 0x00 (0015ms, 3005ms total)
T1F78 004:136 JLINK_WriteReg(R0, 0x00000800)  returns 0x00 (0001ms, 3020ms total)
T1F78 004:137 JLINK_WriteReg(R1, 0x00000400)  returns 0x00 (0007ms, 3021ms total)
T1F78 004:145 JLINK_WriteReg(R2, 0x1000019C)  returns 0x00 (0001ms, 3029ms total)
T1F78 004:146 JLINK_WriteReg(R3, 0x00000000)  returns 0x00 (0001ms, 3030ms total)
T1F78 004:147 JLINK_WriteReg(R4, 0x00000000)  returns 0x00 (0001ms, 3031ms total)
T1F78 004:148 JLINK_WriteReg(R5, 0x00000000)  returns 0x00 (0001ms, 3032ms total)
T1F78 004:149 JLINK_WriteReg(R6, 0x00000000)  returns 0x00 (0001ms, 3033ms total)
T1F78 004:150 JLINK_WriteReg(R7, 0x00000000)  returns 0x00 (0001ms, 3034ms total)
T1F78 004:151 JLINK_WriteReg(R8, 0x00000000)  returns 0x00 (0001ms, 3035ms total)
T1F78 004:152 JLINK_WriteReg(R9, 0x10000174)  returns 0x00 (0001ms, 3036ms total)
T1F78 004:153 JLINK_WriteReg(R10, 0x00000000)  returns 0x00 (0001ms, 3037ms total)
T1F78 004:154 JLINK_WriteReg(R11, 0x00000000)  returns 0x00 (0001ms, 3038ms total)
T1F78 004:155 JLINK_WriteReg(R12, 0x00000000)  returns 0x00 (0001ms, 3039ms total)
T1F78 004:156 JLINK_WriteReg(R13, 0x10000800)  returns 0x00 (0001ms, 3040ms total)
T1F78 004:157 JLINK_WriteReg(R14, 0x10000001)  returns 0x00 (0001ms, 3041ms total)
T1F78 004:158 JLINK_WriteReg(R15, 0x100000F4)  returns 0x00 (0001ms, 3042ms total)
T1F78 004:159 JLINK_WriteReg(XPSR, 0x01000000)  returns 0x00 (0001ms, 3043ms total)
T1F78 004:161 JLINK_WriteReg(MSP, 0x10000800)  returns 0x00 (0001ms, 3045ms total)
T1F78 004:162 JLINK_WriteReg(PSP, 0x10000800)  returns 0x00 (0001ms, 3046ms total)
T1F78 004:163 JLINK_WriteReg(CFBP, 0x00000000)  returns 0x00 (0001ms, 3047ms total)
T1F78 004:164 JLINK_SetBPEx(Addr = 0x10000000, Type = 0xFFFFFFF2)  returns 0x0000000E (0001ms, 3048ms total)
T1F78 004:165 JLINK_Go() -- CPU_WriteMem(4 bytes @ 0xE0002008) -- CPU_WriteMem(4 bytes @ 0xE000200C) -- CPU_WriteMem(4 bytes @ 0xE0002010) -- CPU_WriteMem(4 bytes @ 0xE0002014) -- CPU_WriteMem(4 bytes @ 0xE0002018) -- CPU_WriteMem(4 bytes @ 0xE000201C) (0020ms, 3049ms total)
T1F78 004:185 JLINK_IsHalted()  returns FALSE (0002ms, 3069ms total)
T1F78 004:237 JLINK_IsHalted()  returns TRUE (0013ms, 3069ms total)
T1F78 004:250 JLINK_ReadReg(R15)  returns 0x10000000 (0001ms, 3069ms total)
T1F78 004:251 JLINK_ClrBPEx(BPHandle = 0x0000000E)  returns 0x00 (0001ms, 3070ms total)
T1F78 004:252 JLINK_ReadReg(R0)  returns 0x00000000 (0001ms, 3071ms total)
T1F78 004:254 JLINK_WriteMem(0x1000019C, 0x0400 Bytes, ...) -- Data:  00 00 B0 42 01 D9 37 46 01 E0 DA F8 00 70 00 BF ... -- CPU_WriteMem(1024 bytes @ 0x1000019C)  returns 0x400 (0013ms, 3072ms total)
T1F78 004:267 JLINK_ReadMem (0x1000019C, 0x0400 Bytes, ...) -- CPU_ReadMem(1088 bytes @ 0x10000180) -- Updating C cache (1088 bytes @ 0x10000180) -- Read from C cache (1024 bytes @ 0x1000019C) -- Data:  00 00 B0 42 01 D9 37 46 01 E0 DA F8 00 70 00 BF ...  returns 0x00 (0015ms, 3085ms total)
T1F78 004:282 JLINK_WriteReg(R0, 0x00000C00)  returns 0x00 (0001ms, 3100ms total)
T1F78 004:283 JLINK_WriteReg(R1, 0x00000400)  returns 0x00 (0001ms, 3101ms total)
T1F78 004:284 JLINK_WriteReg(R2, 0x1000019C)  returns 0x00 (0001ms, 3102ms total)
T1F78 004:285 JLINK_WriteReg(R3, 0x00000000)  returns 0x00 (0001ms, 3103ms total)
T1F78 004:286 JLINK_WriteReg(R4, 0x00000000)  returns 0x00 (0001ms, 3104ms total)
T1F78 004:287 JLINK_WriteReg(R5, 0x00000000)  returns 0x00 (0001ms, 3105ms total)
T1F78 004:288 JLINK_WriteReg(R6, 0x00000000)  returns 0x00 (0004ms, 3106ms total)
T1F78 004:292 JLINK_WriteReg(R7, 0x00000000)  returns 0x00 (0001ms, 3110ms total)
T1F78 004:293 JLINK_WriteReg(R8, 0x00000000)  returns 0x00 (0001ms, 3111ms total)
T1F78 004:294 JLINK_WriteReg(R9, 0x10000174)  returns 0x00 (0001ms, 3112ms total)
T1F78 004:295 JLINK_WriteReg(R10, 0x00000000)  returns 0x00 (0001ms, 3113ms total)
T1F78 004:296 JLINK_WriteReg(R11, 0x00000000)  returns 0x00 (0001ms, 3114ms total)
T1F78 004:297 JLINK_WriteReg(R12, 0x00000000)  returns 0x00 (0001ms, 3115ms total)
T1F78 004:298 JLINK_WriteReg(R13, 0x10000800)  returns 0x00 (0001ms, 3116ms total)
T1F78 004:300 JLINK_WriteReg(R14, 0x10000001)  returns 0x00 (0001ms, 3118ms total)
T1F78 004:301 JLINK_WriteReg(R15, 0x100000F4)  returns 0x00 (0001ms, 3119ms total)
T1F78 004:303 JLINK_WriteReg(XPSR, 0x01000000)  returns 0x00 (0000ms, 3121ms total)
T1F78 004:304 JLINK_WriteReg(MSP, 0x10000800)  returns 0x00 (0000ms, 3122ms total)
T1F78 004:305 JLINK_WriteReg(PSP, 0x10000800)  returns 0x00 (0000ms, 3123ms total)
T1F78 004:305 JLINK_WriteReg(CFBP, 0x00000000)  returns 0x00 (0001ms, 3123ms total)
T1F78 004:306 JLINK_SetBPEx(Addr = 0x10000000, Type = 0xFFFFFFF2)  returns 0x0000000F (0001ms, 3124ms total)
T1F78 004:307 JLINK_Go() -- CPU_WriteMem(4 bytes @ 0xE0002008) -- CPU_WriteMem(4 bytes @ 0xE000200C) -- CPU_WriteMem(4 bytes @ 0xE0002010) -- CPU_WriteMem(4 bytes @ 0xE0002014) -- CPU_WriteMem(4 bytes @ 0xE0002018) -- CPU_WriteMem(4 bytes @ 0xE000201C) (0016ms, 3125ms total)
T1F78 004:323 JLINK_IsHalted()  returns FALSE (0002ms, 3141ms total)
T1F78 004:377 JLINK_IsHalted()  returns TRUE (0010ms, 3141ms total)
T1F78 004:387 JLINK_ReadReg(R15)  returns 0x10000000 (0001ms, 3141ms total)
T1F78 004:389 JLINK_ClrBPEx(BPHandle = 0x0000000F)  returns 0x00 (0000ms, 3143ms total)
T1F78 004:390 JLINK_ReadReg(R0)  returns 0x00000000 (0000ms, 3144ms total)
T1F78 004:393 JLINK_WriteMem(0x1000019C, 0x0400 Bytes, ...) -- Data:  4F F6 FF 71 58 46 FF F7 70 FE AA F8 04 B0 00 2F ... -- CPU_WriteMem(1024 bytes @ 0x1000019C)  returns 0x400 (0015ms, 3147ms total)
T1F78 004:408 JLINK_ReadMem (0x1000019C, 0x0400 Bytes, ...) -- CPU_ReadMem(1088 bytes @ 0x10000180) -- Updating C cache (1088 bytes @ 0x10000180) -- Read from C cache (1024 bytes @ 0x1000019C) -- Data:  4F F6 FF 71 58 46 FF F7 70 FE AA F8 04 B0 00 2F ...  returns 0x00 (0015ms, 3162ms total)
T1F78 004:423 JLINK_WriteReg(R0, 0x00001000)  returns 0x00 (0001ms, 3177ms total)
T1F78 004:424 JLINK_WriteReg(R1, 0x00000400)  returns 0x00 (0001ms, 3178ms total)
T1F78 004:425 JLINK_WriteReg(R2, 0x1000019C)  returns 0x00 (0001ms, 3179ms total)
T1F78 004:426 JLINK_WriteReg(R3, 0x00000000)  returns 0x00 (0001ms, 3180ms total)
T1F78 004:427 JLINK_WriteReg(R4, 0x00000000)  returns 0x00 (0001ms, 3181ms total)
T1F78 004:428 JLINK_WriteReg(R5, 0x00000000)  returns 0x00 (0001ms, 3182ms total)
T1F78 004:429 JLINK_WriteReg(R6, 0x00000000)  returns 0x00 (0001ms, 3183ms total)
T1F78 004:430 JLINK_WriteReg(R7, 0x00000000)  returns 0x00 (0001ms, 3184ms total)
T1F78 004:431 JLINK_WriteReg(R8, 0x00000000)  returns 0x00 (0001ms, 3185ms total)
T1F78 004:432 JLINK_WriteReg(R9, 0x10000174)  returns 0x00 (0001ms, 3186ms total)
T1F78 004:433 JLINK_WriteReg(R10, 0x00000000)  returns 0x00 (0001ms, 3187ms total)
T1F78 004:434 JLINK_WriteReg(R11, 0x00000000)  returns 0x00 (0001ms, 3188ms total)
T1F78 004:435 JLINK_WriteReg(R12, 0x00000000)  returns 0x00 (0001ms, 3189ms total)
T1F78 004:436 JLINK_WriteReg(R13, 0x10000800)  returns 0x00 (0001ms, 3190ms total)
T1F78 004:437 JLINK_WriteReg(R14, 0x10000001)  returns 0x00 (0001ms, 3191ms total)
T1F78 004:438 JLINK_WriteReg(R15, 0x100000F4)  returns 0x00 (0001ms, 3192ms total)
T1F78 004:439 JLINK_WriteReg(XPSR, 0x01000000)  returns 0x00 (0001ms, 3193ms total)
T1F78 004:440 JLINK_WriteReg(MSP, 0x10000800)  returns 0x00 (0001ms, 3194ms total)
T1F78 004:447 JLINK_WriteReg(PSP, 0x10000800)  returns 0x00 (0001ms, 3201ms total)
T1F78 004:448 JLINK_WriteReg(CFBP, 0x00000000)  returns 0x00 (0001ms, 3202ms total)
T1F78 004:449 JLINK_SetBPEx(Addr = 0x10000000, Type = 0xFFFFFFF2)  returns 0x00000010 (0001ms, 3203ms total)
T1F78 004:450 JLINK_Go() -- CPU_WriteMem(4 bytes @ 0xE0002008) -- CPU_WriteMem(4 bytes @ 0xE000200C) -- CPU_WriteMem(4 bytes @ 0xE0002010) -- CPU_WriteMem(4 bytes @ 0xE0002014) -- CPU_WriteMem(4 bytes @ 0xE0002018) -- CPU_WriteMem(4 bytes @ 0xE000201C) (0012ms, 3204ms total)
T1F78 004:462 JLINK_IsHalted()  returns FALSE (0002ms, 3216ms total)
T1F78 004:514 JLINK_IsHalted()  returns TRUE (0008ms, 3216ms total)
T1F78 004:522 JLINK_ReadReg(R15)  returns 0x10000000 (0001ms, 3216ms total)
T1F78 004:523 JLINK_ClrBPEx(BPHandle = 0x00000010)  returns 0x00 (0000ms, 3217ms total)
T1F78 004:524 JLINK_ReadReg(R0)  returns 0x00000000 (0000ms, 3218ms total)
T1F78 004:525 JLINK_WriteMem(0x1000019C, 0x0400 Bytes, ...) -- Data:  03 00 02 28 29 D1 A0 78 10 F0 80 0F 12 D0 20 1D ... -- CPU_WriteMem(1024 bytes @ 0x1000019C)  returns 0x400 (0037ms, 3219ms total)
T1F78 004:564 JLINK_ReadMem (0x1000019C, 0x0400 Bytes, ...) -- CPU_ReadMem(1088 bytes @ 0x10000180) -- Updating C cache (1088 bytes @ 0x10000180) -- Read from C cache (1024 bytes @ 0x1000019C) -- Data:  03 00 02 28 29 D1 A0 78 10 F0 80 0F 12 D0 20 1D ...  returns 0x00 (0016ms, 3256ms total)
T1F78 004:580 JLINK_WriteReg(R0, 0x00001400)  returns 0x00 (0002ms, 3272ms total)
T1F78 004:582 JLINK_WriteReg(R1, 0x00000400)  returns 0x00 (0001ms, 3274ms total)
T1F78 004:584 JLINK_WriteReg(R2, 0x1000019C)  returns 0x00 (0001ms, 3276ms total)
T1F78 004:586 JLINK_WriteReg(R3, 0x00000000)  returns 0x00 (0005ms, 3278ms total)
T1F78 004:591 JLINK_WriteReg(R4, 0x00000000)  returns 0x00 (0002ms, 3283ms total)
T1F78 004:593 JLINK_WriteReg(R5, 0x00000000)  returns 0x00 (0001ms, 3285ms total)
T1F78 004:595 JLINK_WriteReg(R6, 0x00000000)  returns 0x00 (0001ms, 3287ms total)
T1F78 004:597 JLINK_WriteReg(R7, 0x00000000)  returns 0x00 (0001ms, 3288ms total)
T1F78 004:598 JLINK_WriteReg(R8, 0x00000000)  returns 0x00 (0002ms, 3289ms total)
T1F78 004:600 JLINK_WriteReg(R9, 0x10000174)  returns 0x00 (0002ms, 3291ms total)
T1F78 004:602 JLINK_WriteReg(R10, 0x00000000)  returns 0x00 (0004ms, 3293ms total)
T1F78 004:606 JLINK_WriteReg(R11, 0x00000000)  returns 0x00 (0002ms, 3297ms total)
T1F78 004:608 JLINK_WriteReg(R12, 0x00000000)  returns 0x00 (0001ms, 3299ms total)
T1F78 004:610 JLINK_WriteReg(R13, 0x10000800)  returns 0x00 (0001ms, 3301ms total)
T1F78 004:611 JLINK_WriteReg(R14, 0x10000001)  returns 0x00 (0002ms, 3302ms total)
T1F78 004:613 JLINK_WriteReg(R15, 0x100000F4)  returns 0x00 (0001ms, 3304ms total)
